ZPLOT2 ASCII
  Saved Data, ZView:          3
  Experiment Type:            Sweep Frequency, Control Voltage
  Date:                       05-16-2023
  Time:                       11:05:36
  Open Circuit Potential (V): 0
  Begin User Comments:        0
  End User Comments:          0
  Begin Information:          Cell Information
    Surface Area:             1
    Density:                  0
    Weight:                   0
    Polarity:                 0
    PolarityI:                0
    Corrosion Unit Type:      0
    Reference Type:           0
    Reference Potential:      0
    User-Defined Potential:   0
    Stern-Geary:              26
  End Information:            Cell Information
  Null Configuration:         0,2,0,1,0.1,100000
  Data Points:                51
  Freq(Hz)	Ampl	Bias	Time(Sec)	Z'(a)	Z''(b)	Aux	Err	Range
End Comments
2.000000E+06	4.0000E-03	6.0000E+00	5.000000E+00	5.861800E+02	-6.180500E+02	0.000000E+00	0	0
1.594000E+06	0.0000E+00	0.0000E+00	0.000000E+00	7.235300E+02	-6.192800E+02	0.000000E+00	0	0
1.270400E+06	0.0000E+00	0.0000E+00	0.000000E+00	8.522100E+02	-5.769400E+02	0.000000E+00	0	0
1.012500E+06	0.0000E+00	0.0000E+00	0.000000E+00	9.625900E+02	-5.178200E+02	0.000000E+00	0	0
8.069200E+05	0.0000E+00	0.0000E+00	0.000000E+00	1.042600E+03	-4.398500E+02	0.000000E+00	0	0
6.431101E+05	0.0000E+00	0.0000E+00	0.000000E+00	1.089700E+03	-3.698200E+02	0.000000E+00	0	0
5.125500E+05	0.0000E+00	0.0000E+00	0.000000E+00	1.124700E+03	-3.214300E+02	0.000000E+00	0	0
4.084900E+05	0.0000E+00	0.0000E+00	0.000000E+00	1.153800E+03	-2.888600E+02	0.000000E+00	0	0
3.255600E+05	0.0000E+00	0.0000E+00	0.000000E+00	1.184500E+03	-2.503300E+02	0.000000E+00	0	0
2.594700E+05	0.0000E+00	0.0000E+00	0.000000E+00	1.208300E+03	-2.187600E+02	0.000000E+00	0	0
2.067900E+05	0.0000E+00	0.0000E+00	0.000000E+00	1.229500E+03	-1.909800E+02	0.000000E+00	0	0
1.648100E+05	0.0000E+00	0.0000E+00	0.000000E+00	1.248100E+03	-1.689100E+02	0.000000E+00	0	0
1.313500E+05	0.0000E+00	0.0000E+00	0.000000E+00	1.264400E+03	-1.491900E+02	0.000000E+00	0	0
1.046900E+05	0.0000E+00	0.0000E+00	0.000000E+00	1.279600E+03	-1.319300E+02	0.000000E+00	0	0
8.343301E+04	0.0000E+00	0.0000E+00	0.000000E+00	1.293400E+03	-1.159200E+02	0.000000E+00	0	0
6.649500E+04	0.0000E+00	0.0000E+00	0.000000E+00	1.304500E+03	-1.017300E+02	0.000000E+00	0	0
5.299500E+04	0.0000E+00	0.0000E+00	0.000000E+00	1.314600E+03	-8.949400E+01	0.000000E+00	0	0
4.223600E+04	0.0000E+00	0.0000E+00	0.000000E+00	1.323800E+03	-7.895500E+01	0.000000E+00	0	0
3.366200E+04	0.0000E+00	0.0000E+00	0.000000E+00	1.331200E+03	-6.939000E+01	0.000000E+00	0	0
2.682800E+04	0.0000E+00	0.0000E+00	0.000000E+00	1.337900E+03	-6.161200E+01	0.000000E+00	0	0
2.138200E+04	0.0000E+00	0.0000E+00	0.000000E+00	1.343900E+03	-5.437400E+01	0.000000E+00	0	0
1.704100E+04	0.0000E+00	0.0000E+00	0.000000E+00	1.349300E+03	-4.852100E+01	0.000000E+00	0	0
1.358100E+04	0.0000E+00	0.0000E+00	0.000000E+00	1.353700E+03	-4.264400E+01	0.000000E+00	0	0
1.082400E+04	0.0000E+00	0.0000E+00	0.000000E+00	1.358000E+03	-3.814700E+01	0.000000E+00	0	0
8.626601E+03	0.0000E+00	0.0000E+00	0.000000E+00	1.361700E+03	-3.434800E+01	0.000000E+00	0	0
6.875301E+03	0.0000E+00	0.0000E+00	0.000000E+00	1.365200E+03	-3.106200E+01	0.000000E+00	0	0
5.479500E+03	0.0000E+00	0.0000E+00	0.000000E+00	1.368500E+03	-2.825100E+01	0.000000E+00	0	0
4.367100E+03	0.0000E+00	0.0000E+00	0.000000E+00	1.371600E+03	-2.589800E+01	0.000000E+00	0	0
3.480500E+03	0.0000E+00	0.0000E+00	0.000000E+00	1.374400E+03	-2.382000E+01	0.000000E+00	0	0
2.773900E+03	0.0000E+00	0.0000E+00	0.000000E+00	1.377100E+03	-2.211700E+01	0.000000E+00	0	0
2.210800E+03	0.0000E+00	0.0000E+00	0.000000E+00	1.379700E+03	-2.063500E+01	0.000000E+00	0	0
1.761900E+03	0.0000E+00	0.0000E+00	0.000000E+00	1.382300E+03	-1.929000E+01	0.000000E+00	0	0
1.404200E+03	0.0000E+00	0.0000E+00	0.000000E+00	1.384600E+03	-1.810800E+01	0.000000E+00	0	0
1.119200E+03	0.0000E+00	0.0000E+00	0.000000E+00	1.387000E+03	-1.699700E+01	0.000000E+00	0	0
8.919600E+02	0.0000E+00	0.0000E+00	0.000000E+00	1.379800E+03	-1.575000E+01	0.000000E+00	0	0
7.108800E+02	0.0000E+00	0.0000E+00	0.000000E+00	1.381700E+03	-1.480200E+01	0.000000E+00	0	0
5.665600E+02	0.0000E+00	0.0000E+00	0.000000E+00	1.383700E+03	-1.378600E+01	0.000000E+00	0	0
4.515400E+02	0.0000E+00	0.0000E+00	0.000000E+00	1.385500E+03	-1.291900E+01	0.000000E+00	0	0
3.598700E+02	0.0000E+00	0.0000E+00	0.000000E+00	1.387100E+03	-1.194800E+01	0.000000E+00	0	0
2.868100E+02	0.0000E+00	0.0000E+00	0.000000E+00	1.388700E+03	-1.090600E+01	0.000000E+00	0	0
2.285800E+02	0.0000E+00	0.0000E+00	0.000000E+00	1.390100E+03	-9.887300E+00	0.000000E+00	0	0
1.821800E+02	0.0000E+00	0.0000E+00	0.000000E+00	1.391300E+03	-9.009100E+00	0.000000E+00	0	0
1.451900E+02	0.0000E+00	0.0000E+00	0.000000E+00	1.392500E+03	-8.085500E+00	0.000000E+00	0	0
1.157200E+02	0.0000E+00	0.0000E+00	0.000000E+00	1.393500E+03	-7.332900E+00	0.000000E+00	0	0
9.222501E+01	0.0000E+00	0.0000E+00	0.000000E+00	1.394000E+03	-6.332300E+00	0.000000E+00	0	0
7.350201E+01	0.0000E+00	0.0000E+00	0.000000E+00	1.394700E+03	-5.792600E+00	0.000000E+00	0	0
5.878600E+01	0.0000E+00	0.0000E+00	0.000000E+00	1.395000E+03	-4.730300E+00	0.000000E+00	0	0
4.556099E+01	0.0000E+00	0.0000E+00	0.000000E+00	1.396700E+03	-4.493800E+00	0.000000E+00	0	0
3.388900E+01	0.0000E+00	0.0000E+00	0.000000E+00	1.395600E+03	-3.068100E+00	0.000000E+00	0	0
2.390500E+01	0.0000E+00	0.0000E+00	0.000000E+00	1.396000E+03	-2.416000E+00	0.000000E+00	0	0
1.584900E+01	0.0000E+00	0.0000E+00	0.000000E+00	1.395900E+03	-1.702900E+00	0.000000E+00	0	0
